name,type,start_time,duration,"mosi","miso"
"SPI","enable",0.0018923,2e-09,,
"SPI","result",0.001901214,7.5e-06,0x00,0x00
"SPI","result",0.001909212,7.502e-06,0x00,0x00
"SPI","disable",0.00191875,2e-09,,
"SPI","enable",0.001969134,2e-09,,
"SPI","result",0.001970236,7.5e-06,0x00,0x0B
"SPI","result",0.001978234,7.502e-06,0x00,0x7F
"SPI","disable",0.001987772,2e-09,,
"SPI","enable",0.002177638,2e-09,,
"SPI","result",0.002186552,7.5e-06,0x00,0x00
"SPI","result",0.00219455,7.502e-06,0x00,0x00
"SPI","disable",0.002204086,2e-09,,
"SPI","enable",0.002254384,2e-09,,
"SPI","result",0.002255486,7.5e-06,0x00,0x0B
"SPI","result",0.002263484,7.502e-06,0x00,0x7F
"SPI","disable",0.002273022,2e-09,,
"SPI","enable",0.002453562,2e-09,,
"SPI","result",0.002462476,7.5e-06,0x00,0x00
"SPI","result",0.002470476,7.5e-06,0x00,0x00
"SPI","disable",0.002480012,2e-09,,
"SPI","enable",0.002530034,2e-09,,
"SPI","result",0.002531136,7.5e-06,0x00,0x0B
"SPI","result",0.002539134,7.502e-06,0x00,0x80
"SPI","disable",0.002548672,2e-09,,
"SPI","enable",0.00272535,2e-09,,
"SPI","result",0.002734264,7.5e-06,0x00,0x00
"SPI","result",0.002742264,7.5e-06,0x00,0x00
"SPI","disable",0.0027518,2e-09,,
"SPI","enable",0.002802272,2e-09,,
"SPI","result",0.002803374,7.5e-06,0x00,0x4B
"SPI","result",0.002811372,7.502e-06,0x00,0x7F
"SPI","disable",0.00282091,2e-09,,
"SPI","enable",0.00300145,2e-09,,
"SPI","result",0.003010364,7.5e-06,0x00,0x80
"SPI","result",0.003018364,7.5e-06,0x00,0x00
"SPI","disable",0.0030279,2e-09,,
"SPI","enable",0.003078372,2e-09,,
"SPI","result",0.003079474,7.5e-06,0x00,0x4B
"SPI","result",0.003087472,7.502e-06,0x00,0x7F
"SPI","disable",0.00309701,2e-09,,
"SPI","enable",0.00328245,2e-09,,
"SPI","result",0.003291364,7.5e-06,0x00,0x80
"SPI","result",0.003299364,7.5e-06,0x00,0x00
"SPI","disable",0.0033089,2e-09,,
"SPI","enable",0.003359372,2e-09,,
"SPI","result",0.003360474,7.5e-06,0x00,0x4B
"SPI","result",0.003368472,7.502e-06,0x00,0x80
"SPI","disable",0.00337801,2e-09,,
"SPI","enable",0.003558388,2e-09,,
"SPI","result",0.003567302,7.5e-06,0x00,0x80
"SPI","result",0.0035753,7.502e-06,0x00,0x00
"SPI","disable",0.003584838,2e-09,,
"SPI","enable",0.00363531,2e-09,,
"SPI","result",0.003636412,7.5e-06,0x00,0x0B
"SPI","result",0.00364441,7.502e-06,0x00,0x7F
"SPI","disable",0.003653946,2e-09,,
"SPI","enable",0.00383055,2e-09,,
"SPI","result",0.003839464,7.5e-06,0x00,0x00
"SPI","result",0.003847464,7.5e-06,0x00,0x00
"SPI","disable",0.003857,2e-09,,
"SPI","enable",0.003907472,2e-09,,
"SPI","result",0.003908574,7.5e-06,0x00,0x4B
"SPI","result",0.003916574,7.5e-06,0x00,0x80
"SPI","disable",0.00392611,2e-09,,
"SPI","enable",0.004106576,2e-09,,
"SPI","result",0.00411549,7.5e-06,0x00,0x80
"SPI","result",0.00412349,7.5e-06,0x00,0x00
"SPI","disable",0.004133264,2e-09,,
"SPI","enable",0.00418411,2e-09,,
"SPI","result",0.004185212,7.5e-06,0x00,0x4B
"SPI","result",0.00419321,7.502e-06,0x00,0x80
"SPI","disable",0.004202748,2e-09,,
"SPI","enable",0.004379088,2e-09,,
"SPI","result",0.004388002,7.5e-06,0x00,0x80
"SPI","result",0.004396002,7.5e-06,0x00,0x00
"SPI","disable",0.004405538,2e-09,,
"SPI","enable",0.00445601,2e-09,,
"SPI","result",0.004457112,7.5e-06,0x00,0x4B
"SPI","result",0.004465112,7.5e-06,0x00,0x7F
"SPI","disable",0.004474648,2e-09,,
"SPI","enable",0.004655188,2e-09,,
"SPI","result",0.004664102,7.502e-06,0x00,0x80
"SPI","result",0.004672102,7.5e-06,0x00,0x00
"SPI","disable",0.004681638,2e-09,,
"SPI","enable",0.00473211,2e-09,,
"SPI","result",0.004733212,7.5e-06,0x00,0x0B
"SPI","result",0.004741212,7.5e-06,0x00,0x7E
"SPI","disable",0.004750748,2e-09,,
"SPI","enable",0.004927352,2e-09,,
"SPI","result",0.004936266,7.5e-06,0x00,0x80
"SPI","result",0.004944264,7.502e-06,0x00,0x00
"SPI","disable",0.004953802,2e-09,,
"SPI","enable",0.005004186,2e-09,,
"SPI","result",0.005005288,7.5e-06,0x00,0x0B
"SPI","result",0.005013286,7.502e-06,0x00,0x7E
"SPI","disable",0.005022824,2e-09,,
"SPI","enable",0.005218438,2e-09,,
"SPI","result",0.005227352,7.5e-06,0x00,0x80
"SPI","result",0.005235352,7.5e-06,0x00,0x00
"SPI","disable",0.005244888,2e-09,,
"SPI","enable",0.00529491,2e-09,,
"SPI","result",0.005296012,7.5e-06,0x00,0x0B
"SPI","result",0.005304012,7.5e-06,0x00,0x7E
"SPI","disable",0.005313548,2e-09,,
"SPI","enable",0.00549024,2e-09,,
"SPI","result",0.005499154,7.5e-06,0x00,0x80
"SPI","result",0.005507152,7.5e-06,0x00,0x00
"SPI","disable",0.005516688,2e-09,,
"SPI","enable",0.00556716,2e-09,,
"SPI","result",0.005568262,7.5e-06,0x00,0x0B
"SPI","result",0.005576262,7.5e-06,0x00,0x7F
"SPI","disable",0.005585798,2e-09,,
"SPI","enable",0.00576634,2e-09,,
"SPI","result",0.005775254,7.5e-06,0x00,0x00
"SPI","result",0.005783252,7.5e-06,0x00,0x00
"SPI","disable",0.005792788,2e-09,,
"SPI","enable",0.005843262,2e-09,,
"SPI","result",0.005844362,7.5e-06,0x00,0x0B
"SPI","result",0.005852362,7.5e-06,0x00,0x7E
"SPI","disable",0.005861898,2e-09,,
"SPI","enable",0.006038502,2e-09,,
"SPI","result",0.006047416,7.5e-06,0x00,0x80
"SPI","result",0.006055414,7.502e-06,0x00,0x00
"SPI","disable",0.006064952,2e-09,,
"SPI","enable",0.006123936,2e-09,,
"SPI","result",0.006125038,7.5e-06,0x00,0x0B
"SPI","result",0.006133036,7.502e-06,0x00,0x80
"SPI","disable",0.006142636,2e-09,,
"SPI","enable",0.00632309,2e-09,,
"SPI","result",0.006332004,7.5e-06,0x00,0x00
"SPI","result",0.006340002,7.502e-06,0x00,0x00
"SPI","disable",0.00634954,2e-09,,
"SPI","enable",0.006400012,2e-09,,
"SPI","result",0.006401112,7.5e-06,0x00,0x0B
"SPI","result",0.006409112,7.5e-06,0x00,0x7F
"SPI","disable",0.006418648,2e-09,,
"SPI","enable",0.00659534,2e-09,,
"SPI","result",0.006604254,7.5e-06,0x00,0x00
"SPI","result",0.006612252,7.502e-06,0x00,0x00
"SPI","disable",0.00662179,2e-09,,
"SPI","enable",0.006672348,2e-09,,
"SPI","result",0.00667345,7.5e-06,0x00,0x0B
"SPI","result",0.00668145,7.5e-06,0x00,0x7F
"SPI","disable",0.006690986,2e-09,,
"SPI","enable",0.006871614,2e-09,,
"SPI","result",0.006880528,7.5e-06,0x00,0x00
"SPI","result",0.006888528,7.5e-06,0x00,0x00
"SPI","disable",0.006898064,2e-09,,
"SPI","enable",0.006948986,2e-09,,
"SPI","result",0.006950088,7.5e-06,0x00,0x0B
"SPI","result",0.006958088,7.5e-06,0x00,0x7E
"SPI","disable",0.006967624,2e-09,,
"SPI","enable",0.007157514,2e-09,,
"SPI","result",0.007166428,7.5e-06,0x00,0x80
"SPI","result",0.007174428,7.5e-06,0x00,0x00
"SPI","disable",0.007183964,2e-09,,
"SPI","enable",0.007234974,2e-09,,
"SPI","result",0.007236076,7.5e-06,0x00,0x4B
"SPI","result",0.007244074,7.502e-06,0x00,0x7E
"SPI","disable",0.007253612,2e-09,,
"SPI","enable",0.007434452,2e-09,,
"SPI","result",0.007443366,7.5e-06,0x00,0x00
"SPI","result",0.007451364,7.502e-06,0x00,0x00
"SPI","disable",0.007460902,2e-09,,
"SPI","enable",0.007511912,2e-09,,
"SPI","result",0.007513012,7.502e-06,0x00,0x0B
"SPI","result",0.007521012,7.5e-06,0x00,0x7F
"SPI","disable",0.007530548,2e-09,,
"SPI","enable",0.007707152,2e-09,,
"SPI","result",0.007716066,7.5e-06,0x00,0x00
"SPI","result",0.007724066,7.5e-06,0x00,0x00
"SPI","disable",0.007733602,2e-09,,
"SPI","enable",0.007783986,2e-09,,
"SPI","result",0.007785088,7.5e-06,0x00,0x0B
"SPI","result",0.007793088,7.5e-06,0x00,0x7E
"SPI","disable",0.007802624,2e-09,,
"SPI","enable",0.007983252,2e-09,,
"SPI","result",0.007992166,7.5e-06,0x00,0x80
"SPI","result",0.008000166,7.5e-06,0x00,0x00
"SPI","disable",0.008009702,2e-09,,
"SPI","enable",0.008060086,2e-09,,
"SPI","result",0.008061188,7.5e-06,0x00,0x4B
"SPI","result",0.008069188,7.5e-06,0x00,0x7F
"SPI","disable",0.008078724,2e-09,,
"SPI","enable",0.008262816,2e-09,,
"SPI","result",0.00827173,7.5e-06,0x00,0x80
"SPI","result",0.008279728,7.5e-06,0x00,0x00
"SPI","disable",0.008289264,2e-09,,
"SPI","enable",0.008340274,2e-09,,
"SPI","result",0.008341376,7.5e-06,0x00,0x0B
"SPI","result",0.008349374,7.502e-06,0x00,0x7E
"SPI","disable",0.008358912,2e-09,,
"SPI","enable",0.018779358,2e-09,,
"SPI","result",0.018788272,7.5e-06,0x00,0x80
"SPI","result",0.01879627,7.502e-06,0x00,0x00
"SPI","disable",0.018805808,2e-09,,
"SPI","enable",0.018856368,2e-09,,
"SPI","result",0.018857468,7.5e-06,0x00,0x0B
"SPI","result",0.018865468,7.5e-06,0x00,0x80
"SPI","disable",0.018875004,2e-09,,
"SPI","enable",0.019051896,2e-09,,
"SPI","result",0.01906081,7.5e-06,0x00,0x00
"SPI","result",0.019068808,7.502e-06,0x00,0x00
"SPI","disable",0.019078346,2e-09,,
"SPI","enable",0.019128468,2e-09,,
"SPI","result",0.019129568,7.5e-06,0x00,0x0B
"SPI","result",0.019137568,7.5e-06,0x00,0x7E
"SPI","disable",0.019147154,2e-09,,
"SPI","enable",0.019327608,2e-09,,
"SPI","result",0.019336522,7.5e-06,0x00,0x80
"SPI","result",0.019344522,7.5e-06,0x00,0x00
"SPI","disable",0.019354058,2e-09,,
"SPI","enable",0.01940453,2e-09,,
"SPI","result",0.01940563,7.502e-06,0x00,0x0B
"SPI","result",0.01941363,7.502e-06,0x00,0x7F
"SPI","disable",0.019423166,2e-09,,
"SPI","enable",0.019599772,2e-09,,
"SPI","result",0.019608684,7.502e-06,0x00,0x00
"SPI","result",0.019616684,7.5e-06,0x00,0x00
"SPI","disable",0.01962622,2e-09,,
"SPI","enable",0.019676606,2e-09,,
"SPI","result",0.019677706,7.5e-06,0x00,0x0B
"SPI","result",0.019685706,7.5e-06,0x00,0x7E
"SPI","disable",0.019695242,2e-09,,
"SPI","enable",0.019875784,2e-09,,
"SPI","result",0.019884698,7.5e-06,0x00,0x80
"SPI","result",0.019892696,7.502e-06,0x00,0x00
"SPI","disable",0.019902234,2e-09,,
"SPI","enable",0.019952256,2e-09,,
"SPI","result",0.019953356,7.502e-06,0x00,0x0B
"SPI","result",0.019961356,7.5e-06,0x00,0x80
"SPI","disable",0.019970892,2e-09,,
"SPI","enable",0.02016457,2e-09,,
"SPI","result",0.020173484,7.5e-06,0x00,0x00
"SPI","result",0.020181484,7.5e-06,0x00,0x00
"SPI","disable",0.02019102,2e-09,,
"SPI","enable",0.020241492,2e-09,,
"SPI","result",0.020242594,7.5e-06,0x00,0x0B
"SPI","result",0.020250594,7.5e-06,0x00,0x7E
"SPI","disable",0.02026013,2e-09,,
"SPI","enable",0.020440672,2e-09,,
"SPI","result",0.020449584,7.5e-06,0x00,0x80
"SPI","result",0.020457584,7.5e-06,0x00,0x00
"SPI","disable",0.02046712,2e-09,,
"SPI","enable",0.020517592,2e-09,,
"SPI","result",0.020518694,7.5e-06,0x00,0x0B
"SPI","result",0.020526694,7.5e-06,0x00,0x7E
"SPI","disable",0.02053623,2e-09,,
"SPI","enable",0.020712834,2e-09,,
"SPI","result",0.020721748,7.5e-06,0x00,0x80
"SPI","result",0.020729746,7.502e-06,0x00,0x00
"SPI","disable",0.020739284,2e-09,,
"SPI","enable",0.020790292,2e-09,,
"SPI","result",0.020791394,7.5e-06,0x00,0x0B
"SPI","result",0.020799394,7.5e-06,0x00,0x7E
"SPI","disable",0.02080893,2e-09,,
"SPI","enable",0.020989472,2e-09,,
"SPI","result",0.020998386,7.5e-06,0x00,0x80
"SPI","result",0.021006384,7.502e-06,0x00,0x00
"SPI","disable",0.021015922,2e-09,,
"SPI","enable",0.021066394,2e-09,,
"SPI","result",0.021067494,7.5e-06,0x00,0x0B
"SPI","result",0.021075494,7.5e-06,0x00,0x7F
"SPI","disable",0.02108503,2e-09,,
"SPI","enable",0.02126906,2e-09,,
"SPI","result",0.021277972,7.5e-06,0x00,0x00
"SPI","result",0.021285972,7.5e-06,0x00,0x00
"SPI","disable",0.021295508,2e-09,,
"SPI","enable",0.021346518,2e-09,,
"SPI","result",0.02134762,7.5e-06,0x00,0x0B
"SPI","result",0.021355618,7.502e-06,0x00,0x7F
"SPI","disable",0.021365156,2e-09,,
"SPI","enable",0.021545696,2e-09,,
"SPI","result",0.02155461,7.5e-06,0x00,0x00
"SPI","result",0.02156261,7.5e-06,0x00,0x00
"SPI","disable",0.021572146,2e-09,,
"SPI","enable",0.021622168,2e-09,,
"SPI","result",0.02162327,7.5e-06,0x00,0x0B
"SPI","result",0.021631268,7.502e-06,0x00,0x7F
"SPI","disable",0.021640806,2e-09,,
"SPI","enable",0.021817498,2e-09,,
"SPI","result",0.02182641,7.5e-06,0x00,0x00
"SPI","result",0.02183441,7.5e-06,0x00,0x00
"SPI","disable",0.021843946,2e-09,,
"SPI","enable",0.021894418,2e-09,,
"SPI","result",0.02189552,7.5e-06,0x00,0x4B
"SPI","result",0.02190352,7.5e-06,0x00,0x7E
"SPI","disable",0.021913056,2e-09,,
"SPI","enable",0.022093598,2e-09,,
"SPI","result",0.022102512,7.5e-06,0x00,0x00
"SPI","result",0.02211051,7.5e-06,0x00,0x00
"SPI","disable",0.022122446,2e-09,,
"SPI","enable",0.022173406,2e-09,,
"SPI","result",0.022174508,7.5e-06,0x00,0x0B
"SPI","result",0.022182506,7.502e-06,0x00,0x7F
"SPI","disable",0.022192044,2e-09,,
"SPI","enable",0.02236856,2e-09,,
"SPI","result",0.022377474,7.5e-06,0x00,0x00
"SPI","result",0.022385472,7.502e-06,0x00,0x00
"SPI","disable",0.02239501,2e-09,,
"SPI","enable",0.022445482,2e-09,,
"SPI","result",0.022446582,7.502e-06,0x00,0x4B
"SPI","result",0.022454582,7.5e-06,0x00,0x7F
"SPI","disable",0.022464118,2e-09,,
"SPI","enable",0.02264466,2e-09,,
"SPI","result",0.022653574,7.5e-06,0x00,0x80
"SPI","result",0.022661572,7.502e-06,0x00,0x00
"SPI","disable",0.02267111,2e-09,,
"SPI","enable",0.022721132,2e-09,,
"SPI","result",0.022722232,7.502e-06,0x00,0x0B
"SPI","result",0.022730232,7.502e-06,0x00,0x7F
"SPI","disable",0.022739768,2e-09,,
"SPI","enable",0.02291646,2e-09,,
"SPI","result",0.022925374,7.5e-06,0x00,0x00
"SPI","result",0.022933374,7.5e-06,0x00,0x00
"SPI","disable",0.02294291,2e-09,,
"SPI","enable",0.022993382,2e-09,,
"SPI","result",0.022994484,7.5e-06,0x00,0x0B
"SPI","result",0.023002482,7.502e-06,0x00,0x7F
"SPI","disable",0.02301202,2e-09,,
"SPI","enable",0.023206822,2e-09,,
"SPI","result",0.023215736,7.5e-06,0x00,0x00
"SPI","result",0.023223736,7.5e-06,0x00,0x00
"SPI","disable",0.023233272,2e-09,,
"SPI","enable",0.023284282,2e-09,,
"SPI","result",0.023285382,7.502e-06,0x00,0x0B
"SPI","result",0.023293382,7.5e-06,0x00,0x7E
"SPI","disable",0.023302918,2e-09,,
"SPI","enable",0.023479522,2e-09,,
"SPI","result",0.023488436,7.5e-06,0x00,0x80
"SPI","result",0.023496436,7.5e-06,0x00,0x00
"SPI","disable",0.023505972,2e-09,,
"SPI","enable",0.023556356,2e-09,,
"SPI","result",0.023557458,7.5e-06,0x00,0x0B
"SPI","result",0.023565458,7.5e-06,0x00,0x7F
"SPI","disable",0.023574994,2.00000001e-09,,
"SPI","enable",0.023755536,2e-09,,
"SPI","result",0.02376445,7.5e-06,0x00,0x00
"SPI","result",0.023772448,7.502e-06,0x00,0x00
"SPI","disable",0.023781984,2e-09,,
"SPI","enable",0.023832456,2.00000001e-09,,
"SPI","result",0.023833558,7.5e-06,0x00,0x4B
"SPI","result",0.023841558,7.5e-06,0x00,0x7F
"SPI","disable",0.023851094,2e-09,,
"SPI","enable",0.024027686,2e-09,,
"SPI","result",0.0240366,7.5e-06,0x00,0x80
"SPI","result",0.024044598,7.502e-06,0x00,0x00
"SPI","disable",0.024054134,2e-09,,
"SPI","enable",0.024105146,2e-09,,
"SPI","result",0.024106246,7.5e-06,0x00,0x0B
"SPI","result",0.024114246,7.5e-06,0x00,0x80
"SPI","disable",0.024124032,2e-09,,
"SPI","enable",0.024311886,2e-09,,
"SPI","result",0.0243208,7.5e-06,0x00,0x00
"SPI","result",0.024328798,7.502e-06,0x00,0x00
"SPI","disable",0.024338334,2e-09,,
"SPI","enable",0.024389344,2e-09,,
"SPI","result",0.024390446,7.5e-06,0x00,0x0B
"SPI","result",0.024398446,7.5e-06,0x00,0x7F
"SPI","disable",0.024407982,2e-09,,
"SPI","enable",0.024584586,2e-09,,
"SPI","result",0.0245935,7.5e-06,0x00,0x00
"SPI","result",0.024601498,7.502e-06,0x00,0x00
"SPI","disable",0.024611036,2e-09,,
"SPI","enable",0.02466142,2e-09,,
"SPI","result",0.024662522,7.5e-06,0x00,0x0B
"SPI","result",0.02467052,7.502e-06,0x00,0x80
"SPI","disable",0.024680058,2e-09,,
"SPI","enable",0.024860598,2e-09,,
"SPI","result",0.024869512,7.5e-06,0x00,0x00
"SPI","result",0.024877512,7.5e-06,0x00,0x00
"SPI","disable",0.024887048,2e-09,,
"SPI","enable",0.02493707,2e-09,,
"SPI","result",0.024938172,7.5e-06,0x00,0x0B
"SPI","result",0.02494617,7.502e-06,0x00,0x7E
"SPI","disable",0.024955708,2e-09,,
"SPI","enable",0.025143348,2e-09,,
"SPI","result",0.025152262,7.5e-06,0x00,0x80
"SPI","result",0.025160262,7.5e-06,0x00,0x00
"SPI","disable",0.025169798,2e-09,,
"SPI","enable",0.02522027,2e-09,,
"SPI","result",0.025221372,7.5e-06,0x00,0x0B
"SPI","result",0.02522937,7.502e-06,0x00,0x7E
"SPI","disable",0.025238908,2e-09,,
"SPI","enable",0.025419448,2e-09,,
"SPI","result",0.025428362,7.5e-06,0x00,0x80
"SPI","result",0.025436362,7.5e-06,0x00,0x00
"SPI","disable",0.025445898,2e-09,,
"SPI","enable",0.02549637,2e-09,,
"SPI","result",0.025497472,7.5e-06,0x00,0x4B
"SPI","result",0.02550547,7.502e-06,0x00,0x7F
"SPI","disable",0.025515008,2e-09,,
"SPI","enable",0.03591428,2e-09,,
"SPI","result",0.035923194,7.5e-06,0x00,0x80
"SPI","result",0.035931192,7.502e-06,0x00,0x00
"SPI","disable",0.035940728,1.99999999e-09,,
"SPI","enable",0.03599165,2e-09,,
"SPI","result",0.035992752,7.5e-06,0x00,0x0B
"SPI","result",0.036000752,7.5e-06,0x00,0x80
"SPI","disable",0.036010288,1.99999999e-09,,
"SPI","enable",0.036206266,2e-09,,
"SPI","result",0.03621518,7.5e-06,0x00,0x00
"SPI","result",0.03622318,7.5e-06,0x00,0x00
"SPI","disable",0.036232716,2e-09,,
"SPI","enable",0.036283638,1.99999999e-09,,
"SPI","result",0.03628474,7.5e-06,0x00,0x0B
"SPI","result",0.036292738,7.502e-06,0x00,0x80
"SPI","disable",0.036302276,2e-09,,
"SPI","enable",0.036478866,2e-09,,
"SPI","result",0.03648778,7.5e-06,0x00,0x00
"SPI","result",0.03649578,7.5e-06,0x00,0x00
"SPI","disable",0.036505316,2e-09,,
"SPI","enable",0.0365557,2e-09,,
"SPI","result",0.036556802,7.5e-06,0x00,0x0B
"SPI","result",0.036564802,7.5e-06,0x00,0x7F
"SPI","disable",0.036574338,2e-09,,
"SPI","enable",0.036754966,2e-09,,
"SPI","result",0.03676388,7.5e-06,0x00,0x00
"SPI","result",0.03677188,7.5e-06,0x00,0x00
"SPI","disable",0.036781416,2e-09,,
"SPI","enable",0.0368318,2e-09,,
"SPI","result",0.036832902,7.5e-06,0x00,0x0B
"SPI","result",0.036840902,7.5e-06,0x00,0x7F
"SPI","disable",0.036850438,2e-09,,
"SPI","enable",0.037027042,2e-09,,
"SPI","result",0.037035956,7.5e-06,0x00,0x00
"SPI","result",0.037043956,7.5e-06,0x00,0x00
"SPI","disable",0.037053492,2e-09,,
"SPI","enable",0.037103514,2.00000001e-09,,
"SPI","result",0.037104614,7.502e-06,0x00,0x0B
"SPI","result",0.037112614,7.502e-06,0x00,0x80
"SPI","disable",0.037122414,2e-09,,
"SPI","enable",0.03731143,1.99999999e-09,,
"SPI","result",0.037320344,7.5e-06,0x00,0x00
"SPI","result",0.037328342,7.502e-06,0x00,0x00
"SPI","disable",0.037337878,2e-09,,
"SPI","enable",0.037388976,2e-09,,
"SPI","result",0.037390078,7.5e-06,0x00,0x0B
"SPI","result",0.037398076,7.502e-06,0x00,0x7F
"SPI","disable",0.037407614,2e-09,,
"SPI","enable",0.037584304,2e-09,,
"SPI","result",0.037593218,7.5e-06,0x00,0x00
"SPI","result",0.037601218,7.5e-06,0x00,0x00
"SPI","disable",0.037610754,2e-09,,
"SPI","enable",0.037661764,2e-09,,
"SPI","result",0.037662866,7.5e-06,0x00,0x0B
"SPI","result",0.037670864,7.502e-06,0x00,0x7F
"SPI","disable",0.037680402,2e-09,,
"SPI","enable",0.037860942,2e-09,,
"SPI","result",0.037869856,7.5e-06,0x00,0x00
"SPI","result",0.037877856,7.5e-06,0x00,0x00
"SPI","disable",0.037887392,2e-09,,
"SPI","enable",0.037937952,2.00000001e-09,,
"SPI","result",0.037939052,7.502e-06,0x00,0x4B
"SPI","result",0.037947052,7.5e-06,0x00,0x7F
"SPI","disable",0.037956588,2e-09,,
"SPI","enable",0.038142668,1.99999999e-09,,
"SPI","result",0.038151582,7.5e-06,0x00,0x80
"SPI","result",0.03815958,7.5e-06,0x00,0x00
"SPI","disable",0.038169116,2e-09,,
"SPI","enable",0.03821959,2e-09,,
"SPI","result",0.03822069,7.5e-06,0x00,0x0B
"SPI","result",0.03822869,7.5e-06,0x00,0x7F
"SPI","disable",0.038238226,2e-09,,
"SPI","enable",0.038418768,1.99999999e-09,,
"SPI","result",0.038427682,7.5e-06,0x00,0x00
"SPI","result",0.03843568,7.502e-06,0x00,0x00
"SPI","disable",0.038445218,1.99999999e-09,,
"SPI","enable",0.03849569,2e-09,,
"SPI","result",0.03849679,7.5e-06,0x00,0x0B
"SPI","result",0.03850479,7.5e-06,0x00,0x80
"SPI","disable",0.038514326,1.99999999e-09,,
"SPI","enable",0.038690918,2e-09,,
"SPI","result",0.038699832,7.5e-06,0x00,0x00
"SPI","result",0.03870783,7.502e-06,0x00,0x00
"SPI","disable",0.038717368,2e-09,,
"SPI","enable",0.038767752,2e-09,,
"SPI","result",0.038768854,7.5e-06,0x00,0x0B
"SPI","result",0.038776852,7.502e-06,0x00,0x7F
"SPI","disable",0.03878639,2.00000001e-09,,
"SPI","enable",0.03896693,2e-09,,
"SPI","result",0.038975844,7.5e-06,0x00,0x00
"SPI","result",0.038983844,7.5e-06,0x00,0x00
"SPI","disable",0.03899338,1.99999999e-09,,
"SPI","enable",0.039043402,1.99999999e-09,,
"SPI","result",0.039044504,7.5e-06,0x00,0x4B
"SPI","result",0.039052502,7.502e-06,0x00,0x80
"SPI","disable",0.03906204,2e-09,,
"SPI","enable",0.039252092,1.99999999e-09,,
"SPI","result",0.039261006,7.5e-06,0x00,0x80
"SPI","result",0.039269006,7.5e-06,0x00,0x00
